(1748208719.176634) vcan0 757#7EB67F117189
(1748208719.187827) vcan0 16C#7BE47E261787C42D
(1748208719.198149) vcan0 64D#239D4C7E49B52D27
(1748208719.208619) vcan0 6E0#A1D7AC60D379416A
(1748208719.218920) vcan0 724#87B8022BFF1D1314
(1748208719.229753) vcan0 363#35
(1748208719.240044) vcan0 639#F7F8835A
(1748208719.250393) vcan0 7E7#6F6A88
(1748208719.260814) vcan0 3B9#B0B8681D264D8B0E
(1748208719.272555) vcan0 698#3DD44F3CE5BC3167
(1748208719.282885) vcan0 4CA#
(1748208719.293149) vcan0 28A#
(1748208719.303285) vcan0 009#AEE78B4F6C
(1748208719.313518) vcan0 556#0446B0
(1748208719.323922) vcan0 787#882A2A536ECFA768
(1748208719.335754) vcan0 59E#ADFE442A5831E6
(1748208719.346021) vcan0 5E5#7E7E71417DE4E836
(1748208719.356266) vcan0 488#62A11A1E53F9D67D
(1748208719.366528) vcan0 41B#FD
(1748208719.376954) vcan0 561#5568126A6A2D0F04
(1748208719.387402) vcan0 081#D6E0E5
(1748208719.397713) vcan0 2E6#6711C9246DD2FE52
(1748208719.407878) vcan0 5D5#
(1748208719.419428) vcan0 0E7#CC5C1823CC866003
(1748208719.430368) vcan0 7E6#496B493A6FAC2E39
(1748208719.440940) vcan0 605#C2A5053720F2A81A
(1748208719.452388) vcan0 03D#C69042499E7D6420
(1748208719.462700) vcan0 53B#08AB7324BCAD6879
(1748208719.473217) vcan0 11E#9343122C04448C7A
(1748208719.484152) vcan0 2B8#71168B4D8D18BA4A
(1748208719.495012) vcan0 0EB#0144EC3AD261745A
(1748208719.505232) vcan0 0D6#9FE8D45DBCB0B61C
(1748208719.516385) vcan0 417#2B5DE5551CAAD924
(1748208719.526957) vcan0 094#3D9C823FD1806075
(1748208719.537140) vcan0 5AD#6FFEC4
(1748208719.548920) vcan0 61F#A4B034423D6F0D
(1748208719.559158) vcan0 555#42B399230DE881
(1748208719.570303) vcan0 132#9B003C
(1748208719.580541) vcan0 200#F03B6562D6DA7369
(1748208719.591819) vcan0 56A#938B2A068161BB6F
(1748208719.602985) vcan0 077#9E0B95140CD9DA48
(1748208719.613481) vcan0 3AC#DD593B3E59614665
(1748208719.624014) vcan0 4DE#4164122EFDFAF618
(1748208719.636050) vcan0 1C4#3B6A04421A
(1748208719.647036) vcan0 11C#271F4D224F52B01D
(1748208719.657303) vcan0 730#6C2C
(1748208719.667704) vcan0 45F#07448D3AC949DE32
(1748208719.681101) vcan0 4EB#4AAB992263059920
(1748208719.691308) vcan0 059#6FDE736905A4C205
(1748208719.702129) vcan0 6C3#5E05096BA2332368
(1748208719.713977) vcan0 099#9F2E1A015E92E809
(1748208719.724332) vcan0 684#78C9B362A087F067
(1748208719.734577) vcan0 657#EFD9A005889D7F7F
(1748208719.745027) vcan0 062#B9069950C16C3B41
(1748208719.756340) vcan0 6B8#
(1748208719.766822) vcan0 25B#0701221C
(1748208719.779357) vcan0 0BD#B976686E8077
(1748208719.789619) vcan0 7C2#22AB4B415CA8F4
(1748208719.801604) vcan0 5B6#BA3A
(1748208719.811929) vcan0 29C#DAEB
(1748208719.822036) vcan0 4D1#7CC6C02D33F51B56
(1748208719.832584) vcan0 426#F4615717DE
(1748208719.844421) vcan0 7F5#8236944350325E55
(1748208719.855081) vcan0 253#0405043E10930670
(1748208719.865315) vcan0 6FF#900A2F49C22E9112
(1748208719.877255) vcan0 7D4#1ED785
(1748208719.887511) vcan0 775#C4415A7411026552
(1748208719.897625) vcan0 60A#052BA600DB02861E
(1748208719.907929) vcan0 369#0F
(1748208719.919825) vcan0 6B6#6DFA88
(1748208719.931123) vcan0 282#
(1748208719.941417) vcan0 079#E5
(1748208719.952398) vcan0 1BE#3BAEB03993
(1748208719.962627) vcan0 028#1D5F58749DCF1F4A
(1748208719.973613) vcan0 731#AFD1
(1748208719.986164) vcan0 681#16B01306
(1748208719.996878) vcan0 636#79812559EC
(1748208720.008330) vcan0 229#9883932EAB74
(1748208720.018959) vcan0 4D6#8061A85750
(1748208720.029103) vcan0 296#C994BE4254
(1748208720.039374) vcan0 3DA#E7A5D275
(1748208720.049489) vcan0 05D#A07B613B8E
(1748208720.060269) vcan0 5E7#C90CCD3C6874CA13
(1748208720.070501) vcan0 204#523672163A38A340
(1748208720.081580) vcan0 505#26E5F5382E674544
(1748208720.091890) vcan0 3B1#D9DB5E6288E01141
(1748208720.102757) vcan0 554#D8F5B05CEA8F9125
(1748208720.115420) vcan0 6BE#3E
(1748208720.126715) vcan0 5A5#9B3689200296
(1748208720.137125) vcan0 72B#90F5C36212055252
(1748208720.147655) vcan0 78B#7A791C668F49E228
(1748208720.158541) vcan0 738#C98185693D240820
(1748208720.178993) vcan0 797#
(1748208720.191465) vcan0 7AF#D07B7E14
(1748208720.203610) vcan0 49D#ED5452515BC3F83B
(1748208720.213910) vcan0 449#F44D406BEEC97D2C
(1748208720.224192) vcan0 351#F05F023A7CC28605
(1748208720.236810) vcan0 6CB#
(1748208720.248128) vcan0 7D9#E67F67441217C91E
(1748208720.258432) vcan0 0D4#
(1748208720.269302) vcan0 0A0#B4F3167A4F386D5A
(1748208720.280589) vcan0 5FF#52FD2D06
(1748208720.290801) vcan0 12D#F895772676DD6310
(1748208720.301913) vcan0 36A#65A7E13CBCBE5B4E
(1748208720.312249) vcan0 07C#3881E25347
(1748208720.323923) vcan0 4D6#9ED5BA20AFB401
(1748208720.336891) vcan0 1CF#C1CBCA6EA4
(1748208720.351039) vcan0 735#0F
(1748208720.361198) vcan0 5CC#24F8E4
(1748208720.371775) vcan0 648#68CE04257517
(1748208720.382537) vcan0 7B5#EB
(1748208720.393099) vcan0 04D#
(1748208720.403497) vcan0 3A6#1150EB7F
(1748208720.414010) vcan0 3DB#2BB5257BAAB5861B
(1748208720.424600) vcan0 334#4E30BB3F69D2D718
(1748208720.438782) vcan0 7FE#3E924F7CCA554768
(1748208720.449245) vcan0 221#9551
(1748208720.459370) vcan0 7D8#DE176B768DC7DA19
(1748208720.469631) vcan0 45F#AD6AB77DACCC8270
(1748208720.479785) vcan0 11A#767D386BC04C2E12
(1748208720.490552) vcan0 79C#3C4D523D77DBE0
(1748208720.500923) vcan0 336#229167036B6E9211
(1748208720.511307) vcan0 355#
(1748208720.521603) vcan0 4CE#1D613C
(1748208720.532004) vcan0 575#598F
(1748208720.542805) vcan0 2B0#DBA410790F572A20
(1748208720.554760) vcan0 402#BC23AD101C5DA60B
(1748208720.564968) vcan0 411#DDA9
(1748208720.575484) vcan0 6B9#2567A344EF61D372
(1748208720.585989) vcan0 181#5AD06504D67C07
(1748208720.597890) vcan0 1B7#2988FC6F867EEA58
(1748208720.608193) vcan0 442#760D3776B741
(1748208720.618716) vcan0 3F9#051FAE15A96E1E64
(1748208720.629005) vcan0 407#B9
(1748208720.640976) vcan0 369#2655090A7A
(1748208720.651362) vcan0 2A7#283B01
(1748208720.663841) vcan0 61C#4F5BB86A9EEFA316
(1748208720.674339) vcan0 294#746CAB4C4B54DD20
(1748208720.685169) vcan0 4D9#D1D2C7791B217873
(1748208720.695968) vcan0 5E4#D262F029DD7923
(1748208720.706132) vcan0 517#87E8410A1EC10E14
(1748208720.716930) vcan0 5B9#
(1748208720.727175) vcan0 7B5#9DC822005C225C34
(1748208720.737740) vcan0 551#BC1B412C6D
(1748208720.753697) vcan0 612#0BF3015EA640786C
(1748208720.764244) vcan0 2B5#
(1748208720.774691) vcan0 41E#A9007E
(1748208720.785705) vcan0 00A#E0AB595C21C5B91D
(1748208720.797244) vcan0 554#4086C8310D2B6A
(1748208720.807434) vcan0 2A7#2F444E235CDAA618
(1748208720.818281) vcan0 5B6#B8FC024D075B0E25
(1748208720.829582) vcan0 091#745E6C6C
(1748208720.841641) vcan0 77F#
(1748208720.851887) vcan0 100#C3115B3A1E05715C
(1748208720.862303) vcan0 3FE#2037A712083C657B
(1748208720.872752) vcan0 5E9#
(1748208720.883366) vcan0 767#4A86BE630EBAC24A
(1748208720.893605) vcan0 6D2#6A9469638814D76F
(1748208720.904112) vcan0 746#8F6F
(1748208720.914453) vcan0 196#7B9E70
(1748208720.926517) vcan0 783#4B6B4350
(1748208720.936990) vcan0 1FF#A1D54C1DFD15BB4B
(1748208720.948719) vcan0 77B#0652
(1748208720.959039) vcan0 7C2#
(1748208720.969739) vcan0 29A#3821543F6CA1483A
(1748208720.980864) vcan0 165#F4B51F
(1748208720.992207) vcan0 6C5#82706F
(1748208721.002467) vcan0 386#7229C9360A13170C
(1748208721.014015) vcan0 4C2#8DE3F24CC1C6985C
(1748208721.025622) vcan0 1CB#BFDC532847A1226E
(1748208721.035859) vcan0 5F1#ABA6E15DB3
(1748208721.047220) vcan0 1F5#DD1CBA2D8F5CDA7A
(1748208721.057462) vcan0 638#FBFD22359D9F
(1748208721.067753) vcan0 3B9#482802527E3AF662
(1748208721.081179) vcan0 172#DA2AD15FF8CC9E5E
(1748208721.091578) vcan0 7C8#02E0B56A8A4C7822
(1748208721.102933) vcan0 109#
(1748208721.120069) vcan0 4BF#1C9C741DB0421C3C
(1748208721.125387) vcan0 6D0#63F84475C5A08C
