(1748208516.560532) vcan0 123#1122334455667788
(1748208526.634704) vcan0 123#1122334455667788
(1748208541.503338) vcan0 1E0#B4F78A473CC9B5
(1748208541.513670) vcan0 07B#DD25B04D2349EF46
(1748208541.523989) vcan0 0FF#1F97796C00CF
(1748208541.534304) vcan0 593#1204AA368B6B9D12
(1748208541.545451) vcan0 6E8#92890C56B97DD816
(1748208541.555818) vcan0 16D#96DFF85E96
(1748208541.566107) vcan0 5F5#E0C0541052A43E74
(1748208541.576423) vcan0 74B#
(1748208541.587266) vcan0 397#6792A10712AC
(1748208541.597507) vcan0 000#35F57308
(1748208541.607709) vcan0 5DB#FF5F901D6E
(1748208541.618230) vcan0 4E2#FA
(1748208541.628823) vcan0 4AE#84C920561B965E14
(1748208541.639875) vcan0 091#B19B576987BE8E17
(1748208541.650759) vcan0 0E3#D962
(1748208541.660937) vcan0 2B2#5AE91E6B499E8051
(1748208541.671686) vcan0 6F1#5C
(1748208541.681798) vcan0 406#F1
(1748208541.692844) vcan0 3E6#
(1748208541.703641) vcan0 402#9344B32BB0D01721
(1748208541.714033) vcan0 4D5#CB66763567A548
(1748208541.724318) vcan0 731#EE63D7211558020E
(1748208541.735191) vcan0 70F#43783507C1A9A4
(1748208541.745350) vcan0 7D2#0A48254FC3FEDE4D
(1748208541.756395) vcan0 55F#B43DE0106511
(1748208541.766910) vcan0 1F8#4663AE36DE
(1748208541.777297) vcan0 596#A796757A98
(1748208541.787457) vcan0 4DF#48A2C14EB459C633
(1748208541.797911) vcan0 152#1BFF0E
(1748208541.814584) vcan0 390#99F8EC6C9F6A803B
(1748208541.825851) vcan0 1D0#60142539A2D1AE5C
(1748208541.837647) vcan0 27A#65D08D2AD9AF8B4B
(1748208541.848679) vcan0 6D1#3EC1B278C9C01868
(1748208541.860840) vcan0 3BF#A85E2376
(1748208541.872160) vcan0 519#ED2AD735F8195A58
(1748208541.882628) vcan0 08A#AD73200CDD
(1748208541.892925) vcan0 649#615AA91DD9E1D62B
(1748208541.904381) vcan0 5D2#794C5767A2FFA037
(1748208541.914868) vcan0 3D6#45D14F1450962F65
(1748208541.925847) vcan0 544#2946BB3016AC3B13
(1748208541.936856) vcan0 7C4#DF6C547B84CBBE
(1748208541.948448) vcan0 3EB#D924EC7D053980
(1748208541.958666) vcan0 0D7#FD52DA436191D2
(1748208541.968984) vcan0 4FC#3E4B913745F32C41
(1748208541.980039) vcan0 173#1FD5036D450F4044
(1748208541.990556) vcan0 099#E70EE17B70BC895E
(1748208542.000984) vcan0 271#C052B943B63F9E1D
(1748208542.011286) vcan0 1D7#CCEBD9309B315A49
(1748208542.021483) vcan0 051#1FFD183F3DCCB176
(1748208542.032313) vcan0 433#420532620AE5B67F
(1748208542.043951) vcan0 1C0#6B768978BC8E2429
(1748208542.055643) vcan0 6EA#0282516A5D583110
(1748208542.065939) vcan0 749#A2
(1748208542.079209) vcan0 0B9#531CB0432AFB8720
(1748208542.089398) vcan0 6B6#E03A26
(1748208542.099915) vcan0 7FD#280AEC784FA8C019
(1748208542.110555) vcan0 758#8C7472108BA3D438
(1748208542.121460) vcan0 141#95888B38019BD265
(1748208542.132252) vcan0 20D#
(1748208542.144880) vcan0 0AA#5449E91EF4278566
(1748208542.155192) vcan0 2E0#D787AB4B997B
(1748208542.165315) vcan0 780#C476D61C367E3024
(1748208542.175646) vcan0 33D#C356C253
(1748208542.186002) vcan0 051#8AC3632CA9572B65
(1748208542.196912) vcan0 033#34FBFF1D7491
(1748208542.207092) vcan0 1E4#752C905FF1832B48
(1748208542.217371) vcan0 2C9#E974E3
(1748208542.227706) vcan0 1F2#686B554FD3046E38
(1748208542.237990) vcan0 734#6C80BC34B496D42C
(1748208542.248259) vcan0 769#
(1748208542.259669) vcan0 0D5#E1C5C45326818C76
(1748208542.271240) vcan0 498#CFD8B75BCC342976
(1748208542.281629) vcan0 181#40C6E6
(1748208542.292467) vcan0 7CC#57F7A43495DA
(1748208542.302830) vcan0 0E9#
(1748208542.314489) vcan0 27D#AE
(1748208542.327133) vcan0 4B0#6530511719146755
(1748208542.337669) vcan0 74B#C0BE881620701B11
(1748208542.348572) vcan0 0FC#46
(1748208542.359444) vcan0 60D#61B2BC748E
(1748208542.370792) vcan0 618#F4
(1748208542.381007) vcan0 357#7AD03E0540B41872
(1748208542.391205) vcan0 68B#1CFFE6
(1748208542.401853) vcan0 7F5#BA6AED3FA5F40601
(1748208542.413967) vcan0 6E5#BF086E5631E6A76D
(1748208542.425340) vcan0 06F#5156C37E6B91B24C
(1748208542.438029) vcan0 420#000F464B2D5ABA41
(1748208542.448751) vcan0 1AD#BC
(1748208542.459664) vcan0 203#
(1748208542.470011) vcan0 6FB#9B59D94A
(1748208542.480397) vcan0 4A8#8E1E3D6F9DDC6B
(1748208542.490997) vcan0 781#42D1721667C6FF61
(1748208542.501239) vcan0 468#98
(1748208542.511684) vcan0 180#4296B012A1ED1B31
(1748208542.521986) vcan0 281#CE47D6
(1748208542.532271) vcan0 6A4#F50B8405A7A09F42
(1748208542.542940) vcan0 63A#0246601B3585D31E
(1748208542.553282) vcan0 7C4#BBD29F386C8CAD32
(1748208542.564251) vcan0 054#09691948D59FDD21
(1748208542.575818) vcan0 292#3C66DD03FA9E705D
(1748208542.589403) vcan0 44D#D1A36E23
(1748208542.599924) vcan0 5BE#6EA36056
(1748208542.610623) vcan0 757#6EBC6735FB450F32
(1748208542.620937) vcan0 4C7#A3E6AE
(1748208542.631241) vcan0 203#37C0321DC7
(1748208542.642604) vcan0 442#332E99
(1748208542.653369) vcan0 43D#6B642061CFFEB654
(1748208542.664687) vcan0 187#CA9D2732D4E5AB4C
(1748208542.675901) vcan0 57C#A29BF0713AF3725A
(1748208542.686195) vcan0 3AF#
(1748208542.698062) vcan0 24D#02A1DA511587C436
(1748208542.708255) vcan0 04C#17C223354F
(1748208542.718490) vcan0 44A#16F4251E8C80E14C
(1748208542.730476) vcan0 541#2245240C7E99D825
(1748208542.740630) vcan0 185#4E988F7A0C8BB01C
(1748208542.751503) vcan0 435#E1705C69B251C50A
(1748208542.761846) vcan0 7B3#EC4438
(1748208542.773874) vcan0 393#694ECE2DE175
(1748208542.784264) vcan0 04F#F6FCEA6B9B809F7E
(1748208542.794640) vcan0 710#EAD2D9745A2BCB1C
(1748208542.805095) vcan0 15B#
(1748208542.816092) vcan0 149#1BF06641CEA23027
(1748208542.826564) vcan0 296#DA2DE143CB0E5835
(1748208542.836867) vcan0 681#7D601D403536FB6A
(1748208542.847138) vcan0 33E#9829FE78D2F6282C
(1748208542.858464) vcan0 5D0#B3
(1748208542.869001) vcan0 76D#BA6679177DDEA76C
(1748208542.879308) vcan0 0B6#D8097309
(1748208542.889471) vcan0 0A4#AEC03C7DEDE9112B
(1748208542.901643) vcan0 6C7#BB8C42525D41064C
(1748208542.912470) vcan0 133#28505E01B5F7
(1748208542.924386) vcan0 151#EA2D434E9004
(1748208542.934608) vcan0 610#62FB
(1748208542.944920) vcan0 783#007A725BF0
(1748208542.955248) vcan0 1BE#6E152B0174FAE714
(1748208542.965384) vcan0 25F#85649676031B
(1748208542.975696) vcan0 504#F104A449
(1748208542.985917) vcan0 5FE#28BDB432310F112D
(1748208542.996179) vcan0 442#E6
(1748208543.006758) vcan0 5F7#
(1748208543.021325) vcan0 452#E7A7F81ED65B
(1748208543.032884) vcan0 59B#C6926E2859DF6F
(1748208543.044539) vcan0 2A2#CDD9574E
(1748208543.058144) vcan0 77A#0438
(1748208543.068331) vcan0 386#4A18A41884
(1748208543.078572) vcan0 6A2#B64849
(1748208543.088769) vcan0 2C4#78C02818BBA0FA74
(1748208543.100565) vcan0 46D#C2B45A51BF101C2D
(1748208543.111651) vcan0 022#956C0741BD1DBE25
(1748208543.122318) vcan0 691#16FD2D5F33811558
(1748208543.133846) vcan0 790#349EAB
(1748208543.146879) vcan0 536#8A0B3D79BC78352B
(1748208543.157081) vcan0 32E#41B26D16
(1748208543.167604) vcan0 147#B4FC0F380BDCA5
(1748208543.177889) vcan0 293#C67CA05100CF975E
(1748208543.189803) vcan0 7C9#C0DFB30BEC37A63C
(1748208543.200584) vcan0 632#A9556462C3
(1748208543.211071) vcan0 3B1#
(1748208543.221293) vcan0 1A3#4D628810D93E8C61
(1748208543.231614) vcan0 262#96B7C10C901542
(1748208543.241796) vcan0 1AB#60F79424F38AE0
(1748208543.253451) vcan0 4CE#FE66865561
(1748208543.264392) vcan0 142#627ED7070B
(1748208543.279914) vcan0 54D#F710
(1748208543.290274) vcan0 277#42
(1748208543.301040) vcan0 161#6BE9B85F04E34B26
(1748208543.311577) vcan0 262#DE21D807C56C1037
(1748208543.321916) vcan0 18F#55825246
(1748208543.332138) vcan0 34B#2DD68D0E19A8
(1748208543.342389) vcan0 5CB#7A57EF320D1F6A74
(1748208543.353421) vcan0 0F1#18F8004B3E365D55
(1748208543.363715) vcan0 3FE#
(1748208543.373894) vcan0 7B1#
(1748208543.383986) vcan0 039#160C5F319B325A0C
(1748208543.394840) vcan0 1C2#609F6A43
(1748208543.405067) vcan0 768#8B0EBF24B34A
(1748208543.415713) vcan0 36C#CCF2490F3709313C
(1748208543.426008) vcan0 1E5#44289B30D6429C
(1748208543.436246) vcan0 023#1479F9772254524B
(1748208543.447214) vcan0 16C#9832
(1748208543.457903) vcan0 4D3#2FC2CC380CA5FE
(1748208543.468303) vcan0 541#A7D7580503CF
(1748208543.480723) vcan0 43A#5492E207A3033471
(1748208543.490951) vcan0 0BE#564ECE762A342547
(1748208543.501077) vcan0 598#613D56
(1748208543.511773) vcan0 36A#53EAEB198D
(1748208543.523676) vcan0 601#AFFFA3106EAF6709
(1748208543.533986) vcan0 63A#8B4821370D93BF
(1748208543.544286) vcan0 17E#1938BE6EBFFE502D
(1748208543.556263) vcan0 101#C2
(1748208543.567121) vcan0 6C9#DED8B06E871F
(1748208543.577276) vcan0 0F6#B15380568E
(1748208543.587553) vcan0 058#0C2E
(1748208543.599796) vcan0 6B7#4F9F3A79B87C553D
(1748208543.610087) vcan0 3C7#262CBD460232621A
(1748208543.621156) vcan0 146#0FC5
(1748208543.632591) vcan0 76D#84094A0B6E58E647
(1748208543.643831) vcan0 4EA#A92D6345B393D1
(1748208543.654152) vcan0 75D#3AB32C3F5338163A
(1748208543.664446) vcan0 5BD#E2BEAA7415962A05
(1748208543.674827) vcan0 7FD#D7891339B48E4B7D
(1748208543.686222) vcan0 54D#6C0BA13A1581
(1748208543.696610) vcan0 025#17B376
(1748208543.706986) vcan0 445#31A4932EB22B
(1748208543.717376) vcan0 54F#2084EF3439
(1748208543.728914) vcan0 4FC#EC15411C5ABCB94A
(1748208543.739116) vcan0 051#ADF4CF040EE6
(1748208543.749326) vcan0 011#237C244D0E689E60
(1748208543.759459) vcan0 07D#C2F6E95DCBA56812
(1748208543.770740) vcan0 721#E0267D6246F7B274
(1748208543.781295) vcan0 1C2#B2904D4507E625
(1748208543.792181) vcan0 21D#B9112F
(1748208543.802689) vcan0 299#A649742D95670819
(1748208543.814170) vcan0 7A2#EF23C2
(1748208543.824835) vcan0 0B9#02E6D12BCBF83D16
(1748208543.835438) vcan0 42C#D960DC76AA6C
(1748208543.845692) vcan0 020#75127F144197B437
(1748208543.857654) vcan0 1CB#888E672C8D
(1748208543.867970) vcan0 34C#9479602069657C0B
(1748208543.878644) vcan0 41E#D62C814CB7365513
(1748208543.888895) vcan0 126#4C9E5D2CC8681F17
(1748208543.900639) vcan0 610#BC68F77AC9FECD68
(1748208543.911371) vcan0 2D9#94F70B7F05A7BE5A
(1748208543.923881) vcan0 0E5#AF13D55C0519EE1E
(1748208543.934435) vcan0 00A#47B0A256
(1748208543.944900) vcan0 779#629D3A3FC572402C
(1748208543.955234) vcan0 609#2FD8BC3727B2
(1748208543.966757) vcan0 243#DEE8AA6D69
(1748208543.978151) vcan0 382#312CF87E9251DE41
(1748208543.988375) vcan0 167#5C50AC2A4024DA22
(1748208543.998693) vcan0 3AD#
(1748208544.009718) vcan0 05E#97AD665F68
(1748208544.021982) vcan0 519#3D5A4F2293641234
(1748208544.032202) vcan0 4AD#58D75260B7FAD22D
(1748208544.042708) vcan0 695#DEAC2808D8B04F
(1748208544.057183) vcan0 48D#4174282F0F30811A
(1748208544.067689) vcan0 4E8#A2815F
(1748208544.080054) vcan0 561#8F8ADE5C0E19C948
(1748208544.090238) vcan0 1EE#A0AD4109
(1748208544.100490) vcan0 4C9#B50AB43AE339A7
(1748208544.110795) vcan0 116#769EB9
(1748208544.122085) vcan0 492#7A509805286BB27F
(1748208544.132416) vcan0 556#001C0247E3D96949
(1748208544.144862) vcan0 316#F209
(1748208544.155860) vcan0 0B5#4D16754D
(1748208544.166111) vcan0 592#247F241581771A78
(1748208544.176345) vcan0 6B0#CE317F48
(1748208544.186651) vcan0 7FB#5D6557
(1748208544.197121) vcan0 176#D59685
(1748208544.208447) vcan0 1A1#3169761EF79E3931
(1748208544.218812) vcan0 4A8#DA
(1748208544.229017) vcan0 573#BC27E4272846EE7F
(1748208544.239525) vcan0 661#3EAC494CF46B2F66
(1748208544.249897) vcan0 6E5#75E3
(1748208544.260112) vcan0 026#100128
(1748208544.270795) vcan0 1C6#3321A32C3DF3320A
(1748208544.281282) vcan0 240#46F1F628E1E3AD0B
(1748208544.291702) vcan0 758#D982E73C008425
(1748208544.301925) vcan0 7A8#BFFB98
(1748208544.313800) vcan0 680#443B7708E28CF234
(1748208544.325489) vcan0 185#D6F821
(1748208544.335946) vcan0 2E5#0016FB330C6B0336
(1748208544.346266) vcan0 18E#
(1748208544.358032) vcan0 57D#91
(1748208544.370361) vcan0 46A#9FCBE03DC2C3F8
(1748208544.383084) vcan0 24E#C2471E7FF761AE71
(1748208544.395383) vcan0 22B#13
(1748208544.405600) vcan0 6FD#8E555F7D82C80A
(1748208544.416315) vcan0 1DA#EC088E4B
(1748208544.426713) vcan0 2AF#CCF7A1433D1C2232
(1748208544.437142) vcan0 5FD#915F537C7BB34E3C
(1748208544.447400) vcan0 75B#389B81
(1748208544.457655) vcan0 5FA#8797BC3E4940DB
(1748208544.467785) vcan0 54F#40A289047BFF7D59
(1748208544.478145) vcan0 2CB#27C8EA
(1748208544.490395) vcan0 3AA#4A52D11785
(1748208544.500920) vcan0 419#45927D66C896B8
(1748208544.511093) vcan0 224#05
(1748208544.522422) vcan0 50B#9C63E330667C
(1748208544.532606) vcan0 0B9#2C507D12B4
(1748208544.547914) vcan0 5AC#FDA6D3
(1748208544.558203) vcan0 6FD#771A704CC9E9A61E
(1748208544.568903) vcan0 290#91736D7A3ACE8D2E
(1748208544.579372) vcan0 053#BFD36C076C6C7045
(1748208544.589651) vcan0 113#3403290F
(1748208544.600086) vcan0 015#584B1B4D20BDB142
(1748208544.610485) vcan0 0CF#87396B5789
(1748208544.620851) vcan0 5CA#3DD80F
(1748208544.632104) vcan0 166#722E1D5C6438374A
(1748208544.642457) vcan0 077#2D22DE68070B5F68
(1748208544.652867) vcan0 387#41D9EC16DA2B8D24
(1748208544.664175) vcan0 39A#46
(1748208544.676115) vcan0 305#E417AF431B034E24
(1748208544.686349) vcan0 1B3#3BC0FF66831A5C07
(1748208544.698162) vcan0 232#0C8C
(1748208544.714016) vcan0 375#72D35715DCF47563
(1748208544.724445) vcan0 383#402DAD2DFA
(1748208544.735418) vcan0 2CE#01B706675676EA30
(1748208544.745695) vcan0 52B#30A2
(1748208544.757940) vcan0 543#73BD895A495091
(1748208544.768119) vcan0 5F1#6453DF4CA527C63C
(1748208544.778612) vcan0 095#28422244C74ACC3D
(1748208544.788976) vcan0 562#C30AF969
(1748208544.800297) vcan0 27D#B385137E00
(1748208544.811348) vcan0 01A#FAC127
(1748208544.821558) vcan0 260#3FA1B23B8CE7223C
(1748208544.832225) vcan0 13D#5228842B81466F11
(1748208544.842737) vcan0 5E6#CA96003AD8
(1748208544.853574) vcan0 31D#7D7B0146B2F34953
(1748208544.864040) vcan0 5CD#793E16112F
(1748208544.874376) vcan0 3D9#079CA64756BED26F
(1748208544.885089) vcan0 772#56D452018C07266B
(1748208544.897198) vcan0 4AE#
(1748208544.907380) vcan0 74B#9ABEE96F
(1748208544.917596) vcan0 724#095F3A0F0A956A13
(1748208544.927891) vcan0 4B2#E2E8A5
(1748208544.938095) vcan0 001#827B0C19CFDDD90A
(1748208544.948322) vcan0 204#FEE8E237DDAD840E
(1748208544.959136) vcan0 338#336C577EAA
(1748208544.969508) vcan0 6C0#3632B80A6E7BBE36
(1748208544.980698) vcan0 6D9#7C52856A24E6CD19
(1748208544.992245) vcan0 060#ADFE9817844F12
(1748208545.002532) vcan0 003#8FE47C08B5C4
(1748208545.013018) vcan0 38A#85
(1748208545.024300) vcan0 1D1#5A11034BD55395
(1748208545.034586) vcan0 202#B3011A033A857C45
(1748208545.044860) vcan0 75E#E4AF0E651E26
(1748208545.057237) vcan0 670#8CA1717E49854012
(1748208545.068915) vcan0 6C7#6E6B0E2C277FB422
(1748208545.079172) vcan0 520#ACCEC61723FD4239
(1748208545.089409) vcan0 7D1#D9C19B505B1B895A
(1748208545.099690) vcan0 0AC#E74EB21A7DB2304D
(1748208545.110022) vcan0 665#53
(1748208545.120245) vcan0 29A#A2DDA509F9D9
(1748208545.130525) vcan0 5EC#1700BE325C24
(1748208545.140860) vcan0 7A1#A6A9AD59
(1748208545.152095) vcan0 5AD#90359D71
(1748208545.162260) vcan0 72F#F097CF160047DE33
(1748208545.175808) vcan0 777#5C62670E23380E6F
(1748208545.186131) vcan0 027#A1EA3E
(1748208545.196672) vcan0 184#F4962A7D
(1748208545.207081) vcan0 0FA#18467562E66E
(1748208545.217768) vcan0 21C#4393A350BE710054
(1748208545.229709) vcan0 7D3#2628E922807D8960
(1748208545.239980) vcan0 1FD#4D18163E2CD1
(1748208545.251327) vcan0 1F2#2C184F2D69199247
(1748208545.261637) vcan0 207#8D51A0362F727351
(1748208545.272404) vcan0 3CB#BBB0740A503D9F73
(1748208545.282875) vcan0 522#6FA9096B1C26C933
(1748208545.294443) vcan0 445#0295FF3C62BEF4
(1748208545.306379) vcan0 5B6#2030F5578A
(1748208545.316617) vcan0 52E#0A9B9E092BB7
(1748208545.326757) vcan0 5FD#57887261EF174F2D
(1748208545.337018) vcan0 396#5931E174
(1748208545.347529) vcan0 30C#CCDF5E2AD846
(1748208545.359403) vcan0 714#2884E72236EC440F
(1748208545.369691) vcan0 037#52120E437D94E2
(1748208545.380191) vcan0 51E#DF52D74E
(1748208545.390482) vcan0 79A#5E703767C834A545
(1748208545.402742) vcan0 345#F4EBA62D42910F31
(1748208545.413353) vcan0 6C1#32A95E5E57222555
(1748208545.424166) vcan0 4CF#F48F102EDC2F5368
(1748208545.434482) vcan0 571#B4
(1748208545.449499) vcan0 049#BB08672C80D8B549
(1748208545.461926) vcan0 073#FD6C98149145E423
(1748208545.472234) vcan0 261#65980662FB91337D
(1748208545.484062) vcan0 2DB#C4C6D842
(1748208545.495156) vcan0 42D#63AFF65CEED29E72
(1748208545.505462) vcan0 703#45F5C347D3
(1748208545.515993) vcan0 320#AF6BC7059190560D
(1748208545.533969) vcan0 4FA#16AD78
(1748208545.544194) vcan0 53F#C4
(1748208545.554646) vcan0 0DE#43
(1748208545.565043) vcan0 29E#3B250B33793D8127
(1748208545.575543) vcan0 46C#9A5B685399009729
(1748208545.585863) vcan0 6B7#87D3351CBBC5FC65
(1748208545.598077) vcan0 393#8E017103B496497A
(1748208545.608959) vcan0 606#4527A00700431228
(1748208545.619439) vcan0 7A0#44389903DF2C817E
(1748208545.632507) vcan0 22D#9132DB1E0C5B4D4F
(1748208545.642699) vcan0 0C9#4CEE2405
(1748208545.653309) vcan0 17C#E1787127E94DE1
(1748208545.664575) vcan0 787#824E78223E9E7714
(1748208545.675192) vcan0 779#F963747A0D43ED16
(1748208545.685445) vcan0 2D6#C1D93611DC3876
(1748208545.696108) vcan0 2C4#DD7B88246422
(1748208545.706517) vcan0 562#43
(1748208545.718751) vcan0 229#9CBA3523
(1748208545.729076) vcan0 7A8#5A36933325618D37
(1748208545.739930) vcan0 46F#0EAF6E30F6BB9E0E
(1748208545.750220) vcan0 3B6#
(1748208545.761934) vcan0 79A#3DA60418710A3D34
(1748208545.772153) vcan0 3B6#4D43B3307AF68D22
(1748208545.782289) vcan0 104#DF1847506756020D
(1748208545.793771) vcan0 34B#F7B5
(1748208545.804013) vcan0 1F7#6728F8
(1748208545.816857) vcan0 17B#C4
(1748208545.828174) vcan0 5FC#E191
(1748208545.838519) vcan0 763#E2F48567FD16
(1748208545.850256) vcan0 244#6E217B76FACDB577
(1748208545.860561) vcan0 31D#75C4431A229CD86A
(1748208545.871886) vcan0 3E6#89F2DA77
(1748208545.882462) vcan0 576#
(1748208545.892804) vcan0 113#0D1969248E326109
(1748208545.904273) vcan0 3CE#78
(1748208545.914634) vcan0 5A4#7DEB9E7607552760
(1748208545.926003) vcan0 66F#046C6522B4300C4D
(1748208545.938324) vcan0 37F#AEFEC1
(1748208545.948553) vcan0 22F#BE324E
(1748208545.959562) vcan0 077#47AD4036EEE59C
(1748208545.969877) vcan0 5C7#5B15405FDAE6D41E
(1748208545.982234) vcan0 6FB#68193628CAAA1248
(1748208545.992658) vcan0 23A#94
(1748208546.003545) vcan0 43A#E5
(1748208546.013788) vcan0 071#5E737B2EF04BB60A
(1748208546.024009) vcan0 65C#8CE22B118B306060
(1748208546.034283) vcan0 530#A146D91CA7D5D31B
(1748208546.044532) vcan0 292#95BB704C5A08922D
(1748208546.056274) vcan0 5D6#34
(1748208546.067834) vcan0 759#9C6FFC619391BF04
(1748208546.078500) vcan0 27E#
(1748208546.088923) vcan0 442#62295205B334
(1748208546.099445) vcan0 740#
(1748208546.109832) vcan0 6CD#28E6D076FD434E79
(1748208546.120063) vcan0 07A#A41922150DB32740
(1748208546.131126) vcan0 0B1#67BBB96D88863B38
(1748208546.143840) vcan0 62B#5A4B255284A59D3C
(1748208546.154278) vcan0 338#18375D41B6DD
(1748208546.164642) vcan0 726#6FC4DA0568938277
(1748208546.175196) vcan0 6E0#1B
(1748208546.185463) vcan0 292#BCAB3F465F990566
(1748208546.196358) vcan0 3EE#5CDD535F
(1748208546.206611) vcan0 6AD#
(1748208546.217188) vcan0 43A#E765BA6F65724C63
(1748208546.227675) vcan0 578#EA
(1748208546.237855) vcan0 437#67CE
(1748208546.248192) vcan0 78B#C62EE55B6B86
(1748208546.258365) vcan0 0A7#8B
(1748208546.268645) vcan0 7A0#98A4D7438EEBAC38
(1748208546.279526) vcan0 22C#F60FC54D
(1748208546.289885) vcan0 0F5#395850212F45AA6D
(1748208546.300437) vcan0 248#
(1748208546.310876) vcan0 761#71A8F00E98DBEB48
(1748208546.322662) vcan0 681#F5764E2D0C26707E
(1748208546.333855) vcan0 1AE#78AC6764558A424F
(1748208546.344699) vcan0 49D#8F9514
(1748208546.355087) vcan0 14B#CBC78943780B4B
(1748208546.366381) vcan0 41C#52
(1748208546.377523) vcan0 72D#407A63197639521A
(1748208546.390477) vcan0 2AB#36F16A7D0C
(1748208546.402101) vcan0 154#A4E54D27D51F63
(1748208546.414170) vcan0 07F#E245D32B2D1A8759
(1748208546.424850) vcan0 255#83A4C928F29E9370
(1748208546.435989) vcan0 35D#2F7B
(1748208546.446557) vcan0 439#2178E84F5530E25A
(1748208546.458910) vcan0 2BB#66659B
(1748208546.469129) vcan0 0FE#5F13EF1EA973E9
(1748208546.479437) vcan0 17C#B57D4B0DD1
(1748208546.489665) vcan0 63D#A632F712BCAED151
(1748208546.502021) vcan0 7F2#EAC8582B47C20567
(1748208546.512331) vcan0 2E2#3961995740866E59
(1748208546.523136) vcan0 77F#E9F20B3AB81BCB70
(1748208546.533685) vcan0 762#0E4CAD4B1E3A4D62
(1748208546.545355) vcan0 77D#0714EA66
(1748208546.556121) vcan0 11B#24B4540598A2
(1748208546.567426) vcan0 3FB#69B5346238CAE84A
(1748208546.577690) vcan0 532#F578BA1C24556F50
(1748208546.587863) vcan0 098#6C1775377ACBFB02
(1748208546.598219) vcan0 74C#BA516A5CCB
(1748208546.609079) vcan0 50E#837201
(1748208546.620986) vcan0 7AD#8E
(1748208546.631196) vcan0 006#A557CF2921
(1748208546.642924) vcan0 1FB#B9A3DF43F7156065
(1748208546.653344) vcan0 5A2#2FE0
(1748208546.663564) vcan0 132#F9276D59
(1748208546.673769) vcan0 303#446D32524F
(1748208546.684203) vcan0 00A#1AA18277180D0902
(1748208546.694873) vcan0 3A2#8981257650B37D65
(1748208546.705385) vcan0 22F#7ACAE13835422A
(1748208546.716158) vcan0 2AD#
(1748208546.727333) vcan0 5E9#
(1748208546.737579) vcan0 033#603E975C65819D52
(1748208546.747923) vcan0 3F3#2F23D421F7C6D244
(1748208546.758186) vcan0 5BE#46111F
(1748208546.768603) vcan0 772#E1
(1748208546.779069) vcan0 5FF#6506344D2E98584D
(1748208546.789373) vcan0 482#64DA82532F0F7835
(1748208546.799848) vcan0 2FF#D7EB8702E9209C7A
(1748208546.810073) vcan0 4CB#758C354EFE4492
(1748208546.821141) vcan0 146#63C62F3C39
(1748208546.831417) vcan0 12F#30A4
(1748208546.841645) vcan0 206#B6348F0E78C9AD
(1748208546.855072) vcan0 7D8#8D1C645CD72D260C
(1748208546.865469) vcan0 402#05C6
(1748208546.875684) vcan0 3D2#B3B78237D1E67418
(1748208546.885963) vcan0 624#BA071113F0C22200
(1748208546.897996) vcan0 202#EE07B5694833B306
(1748208546.908353) vcan0 705#8110
(1748208546.918935) vcan0 7E4#2167
(1748208546.929164) vcan0 229#63FBA04A01D2BE4C
(1748208546.940980) vcan0 370#
(1748208546.951346) vcan0 2E3#F76F1B73B52E4B00
(1748208546.961604) vcan0 647#8615C0186B24532D
(1748208546.972101) vcan0 335#5B
(1748208546.984176) vcan0 170#7F805E5A75102B19
(1748208546.995255) vcan0 59C#A9
(1748208547.005565) vcan0 5B3#6BA7EB16DCAF9C5F
(1748208547.016720) vcan0 3A3#DD815B2C13DF7258
(1748208547.028815) vcan0 2BE#85A68349A1
(1748208547.039100) vcan0 792#56247A59D9AD0917
(1748208547.051868) vcan0 627#45D25C445C09E64B
(1748208547.062183) vcan0 71E#
(1748208547.072436) vcan0 0EA#04194E
(1748208547.082576) vcan0 014#07DC0507C7AD4C25
(1748208547.094556) vcan0 178#A35D
(1748208547.104906) vcan0 640#
(1748208547.115660) vcan0 135#A0D63E61
(1748208547.127976) vcan0 130#A1563305573F
(1748208547.138595) vcan0 4D3#B4489A34F18B
(1748208547.148985) vcan0 287#80942176718B6044
(1748208547.159427) vcan0 65B#F8F16D0A
(1748208547.169902) vcan0 731#378CD615AA28D769
(1748208547.180387) vcan0 171#C58DB80CB177E32E
(1748208547.192258) vcan0 15B#AF58F336
(1748208547.202712) vcan0 4A8#59D3B370D8BD5B4E
(1748208547.212975) vcan0 246#30FD0F37195FDE7F
(1748208547.223239) vcan0 2E1#0BEBDC4A
(1748208547.233468) vcan0 52C#D9C03A3F875BF10D
(1748208547.245223) vcan0 50F#F7
(1748208547.255862) vcan0 0D0#EABC126A41D2810A
(1748208547.266367) vcan0 00A#
(1748208547.277110) vcan0 4A4#F6A3
(1748208547.287617) vcan0 1F1#2497181A37FC755B
(1748208547.298561) vcan0 14A#515B545B
(1748208547.309576) vcan0 238#93298D1E64BFA87C
(1748208547.320888) vcan0 5E7#EC1A9A0AF6F29D62
(1748208547.331820) vcan0 53E#3687D9
(1748208547.342153) vcan0 312#50
(1748208547.352970) vcan0 6D1#8244
(1748208547.363501) vcan0 4E4#C1844C0ED6AE573F
(1748208547.373789) vcan0 7C8#0DABCD1A12
(1748208547.384349) vcan0 03A#3DF5723B728A6036
(1748208547.395061) vcan0 4BA#
(1748208547.405328) vcan0 13C#970521
(1748208547.415773) vcan0 1A6#89C4C561B9D41F64
(1748208547.425921) vcan0 0EF#D59F9830C05F9E59
(1748208547.436218) vcan0 71B#350B2E1C00CC15
(1748208547.447642) vcan0 4D0#D67A6D2B982C
(1748208547.457944) vcan0 3DB#AA2D9C
(1748208547.468208) vcan0 442#88E6CD02FC78B0
(1748208547.479587) vcan0 1B7#9E8B335CF34AD755
(1748208547.489829) vcan0 522#6EF10F35C8
(1748208547.501464) vcan0 603#8123531EF2EE35
(1748208547.513326) vcan0 2D0#B24ED47AEB59F3
(1748208547.523552) vcan0 7AE#EB2509277E746B
(1748208547.533797) vcan0 1DD#16
(1748208547.545020) vcan0 6A5#
(1748208547.555436) vcan0 1A7#E36BBF2D5E33
(1748208547.565579) vcan0 0B5#52
(1748208547.575904) vcan0 0B7#
(1748208547.586226) vcan0 5B7#AD
(1748208547.596854) vcan0 378#72EA5C42277B6F7B
(1748208547.607297) vcan0 647#A5EFDA7F2428204C
(1748208547.618687) vcan0 11F#DDBD7C60C4778E54
(1748208547.629025) vcan0 77C#AB6A9D292451F934
(1748208547.639677) vcan0 002#8284FB14B8904D3E
(1748208547.651286) vcan0 610#8F2E374B
(1748208547.662198) vcan0 294#82FD2D054B987D37
(1748208547.672425) vcan0 351#D228E73EC9FE1F2C
(1748208547.682743) vcan0 78E#F0798F27D5
(1748208547.692910) vcan0 3A3#FADD5E48C2D4
(1748208547.704505) vcan0 252#874C157BCE5993
(1748208547.714767) vcan0 383#F2AA
(1748208547.725486) vcan0 5C1#3E644E4DD2
(1748208547.736560) vcan0 249#99B2F60ADEA41B5A
(1748208547.747881) vcan0 5FD#293D99114ED99D22
(1748208547.765307) vcan0 34A#17D8BD4ED9BABA7F
(1748208547.775911) vcan0 141#AE70F97BE49C6E3C
(1748208547.786293) vcan0 39E#A671F562F0B5443A
(1748208547.797512) vcan0 280#BE0FD84903365657
(1748208547.808927) vcan0 560#89
(1748208547.819260) vcan0 226#F35E2C5C6F1C4A
(1748208547.829413) vcan0 095#4DC1656692AE0477
(1748208547.839757) vcan0 1A8#E087A219F30467
(1748208547.850656) vcan0 473#CCBF2105B4DD43
(1748208547.861995) vcan0 1FF#987AB2569D6D657C
(1748208547.873664) vcan0 723#8D23AA36A369A732
(1748208547.883988) vcan0 26C#A69FFD09CC1F701A
(1748208547.894948) vcan0 5FD#
(1748208547.905359) vcan0 6F7#92
(1748208547.918138) vcan0 36E#
(1748208547.928395) vcan0 457#095A3B59CA18022A
(1748208547.938681) vcan0 5F6#7EF64544F5
(1748208547.949160) vcan0 250#93CD3F4473C9
(1748208547.961151) vcan0 554#
(1748208547.971412) vcan0 46C#8C27C3066912530A
(1748208547.981543) vcan0 3EC#8CEA2601E492DF75
(1748208547.992528) vcan0 45B#70AA0466C95FF671
(1748208548.003878) vcan0 4FF#DFB4CA4556494B4F
(1748208548.014225) vcan0 68D#20624D79836C2737
(1748208548.025453) vcan0 0BE#79CC017F0E73DB5C
(1748208548.037065) vcan0 1B4#813CC70108272C2D
(1748208548.049080) vcan0 32C#C92E7F1999AF97
(1748208548.060947) vcan0 254#02C2EA4340
(1748208548.071180) vcan0 0CF#2451B0022A6DAC55
(1748208548.082925) vcan0 3AE#F3CCA247AD
(1748208548.093571) vcan0 424#036A6A
(1748208548.104058) vcan0 0BC#359705
(1748208548.114485) vcan0 4C1#892CB20675EED615
(1748208548.126328) vcan0 5BA#7D150343E688743B
(1748208548.136656) vcan0 0A2#7F380C75F61A
(1748208548.148959) vcan0 29C#36D9
(1748208548.162053) vcan0 711#96A8B312BF325F47
(1748208548.172327) vcan0 5F0#6C537E7E1492D84A
(1748208548.182656) vcan0 75C#C5BCB64E18883714
(1748208548.192923) vcan0 192#93410E3E53AEEB41
(1748208548.203132) vcan0 7A8#C89CC25762B50C41
(1748208548.213287) vcan0 726#493E817CC8
(1748208548.224659) vcan0 68C#BECACC4B28910C74
(1748208548.235241) vcan0 14A#93CC13315B
(1748208548.245456) vcan0 650#1A4BEC6F40F49136
(1748208548.257019) vcan0 2B3#54866A010FE2
(1748208548.267287) vcan0 3F5#286A191A87E5F377
(1748208548.277402) vcan0 714#DA93DF39BC4EA11D
(1748208548.287779) vcan0 1D7#1F04
(1748208548.298630) vcan0 2E8#C6A02F1974D9AF23
(1748208548.309085) vcan0 130#9C6ABC17
(1748208548.320013) vcan0 779#D642CE1FC9DDF57B
(1748208548.333672) vcan0 459#09
(1748208548.344302) vcan0 477#1B7997306D887871
(1748208548.357080) vcan0 377#F46D6C
(1748208548.367308) vcan0 6FE#4781927BD5A8C03F
(1748208548.377627) vcan0 271#D399E2295915
(1748208548.388837) vcan0 7CE#CDEE0505FF802C02
(1748208548.401410) vcan0 61D#7AAB6D7997B56702
(1748208548.411641) vcan0 099#
(1748208548.421764) vcan0 441#FED3DF1CB9A81B27
(1748208548.432569) vcan0 5C7#263194183E59EB68
(1748208548.444188) vcan0 05D#C98BDC465BBF003B
(1748208548.455517) vcan0 0E9#31
(1748208548.465983) vcan0 277#B4E8903B
(1748208548.476213) vcan0 49D#45DB
(1748208548.486983) vcan0 0EB#51982C1284C1EB42
(1748208548.498539) vcan0 50F#76FE
(1748208548.509375) vcan0 11C#0A9A0737
(1748208548.521422) vcan0 78E#
(1748208548.532505) vcan0 24A#460F9672340BE976
(1748208548.546782) vcan0 0FC#8FDE235174D32D
(1748208548.557059) vcan0 17B#BA2D4D
(1748208548.571458) vcan0 6C5#D3987609B1CFA42A
(1748208548.581917) vcan0 7BE#3591906D
(1748208548.592636) vcan0 4D6#1EF63320F2ED9C6D
(1748208548.603024) vcan0 220#D63CE413AE810914
(1748208548.613524) vcan0 358#99D19E4BA3C57378
(1748208548.624955) vcan0 0E3#
(1748208548.635426) vcan0 057#542DD246D3D1
(1748208548.647752) vcan0 6A9#EB8739376F15811A
(1748208548.657964) vcan0 40D#20E52545CBF30A53
(1748208548.668602) vcan0 1E3#98F85263B9
(1748208548.679717) vcan0 601#AC9C1D762268F9
(1748208548.690220) vcan0 6DF#D0E9
(1748208548.703004) vcan0 67A#DB9F0D7A5DD73E26
(1748208548.713184) vcan0 44A#3D31
(1748208548.723522) vcan0 018#74
(1748208548.733911) vcan0 19F#
(1748208548.746186) vcan0 71E#
(1748208548.758620) vcan0 7A6#
(1748208548.768952) vcan0 0C7#C975D428A67734
(1748208548.779941) vcan0 5E9#DE51CE0C63A4E05A
(1748208548.790540) vcan0 304#C07B1F014EB74F18
(1748208548.802396) vcan0 26B#EFABB22B8382311A
(1748208548.814518) vcan0 38F#45195211
(1748208548.825015) vcan0 0C4#DBE2197BE2
(1748208548.835262) vcan0 6C6#E4F0BD
(1748208548.845509) vcan0 663#136C14622AF70E22
(1748208548.857455) vcan0 506#D06E432DEF52F471
(1748208548.867651) vcan0 177#52F7D44C7B5C3942
(1748208548.880205) vcan0 268#C913
(1748208548.890497) vcan0 010#5797654BA02BAF3E
(1748208548.901744) vcan0 21C#CFF03B43E0F29A07
(1748208548.912045) vcan0 612#C3223155D8CC6679
(1748208548.922230) vcan0 7FD#442BA07C60C6A4
(1748208548.934079) vcan0 446#8ABDB3164CE181
(1748208548.944875) vcan0 134#3B34761EABBA5D7B
(1748208548.955527) vcan0 50A#2617973D729FF63E
(1748208548.965898) vcan0 69F#46B42A70B0BE3640
(1748208548.977704) vcan0 2A8#50EAE57EC41C3521
(1748208548.988323) vcan0 43A#A50FD0284C72F317
(1748208548.998946) vcan0 6C9#243F5A11C7767F03
(1748208549.009747) vcan0 60F#273D247855BA452E
(1748208549.022147) vcan0 1C0#A19B
(1748208549.033433) vcan0 70D#A035AA511714D850
(1748208549.044478) vcan0 369#89B3CE0F089A
(1748208549.059831) vcan0 7B6#
(1748208549.072174) vcan0 36E#227FF266A8AFD153
(1748208549.082313) vcan0 627#F521C56BF1CC7E
(1748208549.094186) vcan0 12F#B843FE223E07B453
(1748208549.104391) vcan0 382#93C1F90142CDC877
(1748208549.115554) vcan0 391#3648154E
(1748208549.125782) vcan0 510#B5B6A14D7928
(1748208549.135990) vcan0 29D#82C2505853426256
(1748208549.147179) vcan0 20F#B1A41F1C7D85F318
(1748208549.161132) vcan0 643#2535C5
(1748208549.161934) vcan0 29B#5B49BB51CA739820
